time	I(R1)	Id(M1)
0.000000000000000e+00	0.000000e+00	0.000000e+00
1.310796865615931e-03	2.080003e-06	3.803463e-06
2.621593731231861e-03	4.157684e-06	7.556740e-06
3.932390596847792e-03	6.233042e-06	1.125983e-05
5.243187462463723e-03	8.306077e-06	1.491274e-05
6.553984328079653e-03	1.037679e-05	1.851547e-05
7.864781193695583e-03	1.244518e-05	2.206801e-05
9.175578059311511e-03	1.451125e-05	2.557036e-05
1.050504119369558e-02	1.627136e-05	2.907133e-05
1.183450432807965e-02	1.802465e-05	3.252067e-05
1.316396746246372e-02	1.977112e-05	3.591840e-05
1.449343059684779e-02	2.151076e-05	3.926449e-05
1.582289373123186e-02	2.324359e-05	4.255896e-05
1.715235686561593e-02	2.496959e-05	4.580181e-05
1.848182000000000e-02	2.668877e-05	4.899303e-05
1.983766428571429e-02	2.820257e-05	5.219441e-05
2.119350857142857e-02	2.970245e-05	5.534210e-05
2.254935285714286e-02	3.118841e-05	5.843609e-05
2.390519714285714e-02	3.266046e-05	6.147639e-05
2.526104142857143e-02	3.411858e-05	6.446299e-05
2.661688571428571e-02	3.556278e-05	6.739590e-05
2.797273000000000e-02	3.699307e-05	7.027512e-05
2.952857428571428e-02	3.849229e-05	7.351289e-05
3.108441857142857e-02	3.995237e-05	7.667997e-05
3.264026285714286e-02	4.137331e-05	7.977634e-05
3.419610714285715e-02	4.275512e-05	8.280200e-05
3.575195142857143e-02	4.409780e-05	8.575697e-05
3.730779571428572e-02	4.540134e-05	8.864124e-05
3.886364000000000e-02	4.666575e-05	9.145480e-05
4.318831428571429e-02	4.999403e-05	9.890407e-05
4.751298857142858e-02	5.310040e-05	1.058071e-04
5.183766285714287e-02	5.598487e-05	1.121638e-04
5.616233714285716e-02	5.864743e-05	1.179743e-04
6.048701142857144e-02	6.108809e-05	1.232385e-04
6.481168571428574e-02	6.330684e-05	1.279564e-04
6.913636000000001e-02	6.530368e-05	1.321280e-04
7.433116571428572e-02	6.760907e-05	1.363462e-04
7.952597142857144e-02	6.970290e-05	1.398208e-04
8.472077714285715e-02	7.158518e-05	1.425518e-04
8.991558285714288e-02	7.325589e-05	1.445391e-04
9.511038857142859e-02	7.471505e-05	1.457828e-04
1.003051942857143e-01	7.596265e-05	1.462828e-04
1.055000000000000e-01	7.699869e-05	1.460392e-04
1.184841271428572e-01	7.905597e-05	1.460392e-04
1.314682542857143e-01	8.124144e-05	1.460392e-04
1.444523814285714e-01	8.355510e-05	1.460392e-04
1.574365085714286e-01	8.599695e-05	1.460392e-04
1.704206357142858e-01	8.856699e-05	1.460392e-04
1.834047628571429e-01	9.126523e-05	1.460392e-04
1.963888900000000e-01	9.409165e-05	1.460392e-04
2.397619057142857e-01	1.053089e-04	1.460392e-04
2.831349214285714e-01	1.187282e-04	1.460392e-04
3.265079371428572e-01	1.343496e-04	1.460392e-04
3.698809528571429e-01	1.521731e-04	1.460392e-04
4.132539685714286e-01	1.721987e-04	1.460392e-04
4.566269842857144e-01	1.944264e-04	1.460392e-04

